
T1088 000:372 SEGGER J-Link V4.36l Log File (0001ms, 0371ms total)
T1088 000:372 DLL Compiled: Dec  2 2011 18:52:36 (0001ms, 0371ms total)
T1088 000:372 Logging started @ 2014-11-22 19:39 (0001ms, 0371ms total)
T1088 000:373 JLINK_SetWarnOutHandler(...) (0000ms, 0372ms total)
T1088 000:373 JLINK_OpenEx(...)
Firmware: J-Link ARM V8 compiled Nov 25 2013 19:20:08
Hardware: V8.00
S/N: 805306163
Feature(s): RDI,FlashDL,FlashBP,JFlash,GDBFull  returns O.K. (0089ms, 0372ms total)
T1088 000:462 JLINK_SetErrorOutHandler(...) (0000ms, 0461ms total)
T1088 000:463 JLINK_ExecCommand("Device = STM32F103C8", ...)
                JLINK_ExecCommand("map ram 0x20000000 - 0x20004FFF", ...)  returns 0x00 (0000ms, 0000ms total)
                JLINK_AddMirrorAreaEx(Addr = 0x00000000, Size = 0x00000000) (0000ms, 0000ms total)
              Device "STM32F103C8" selected (64 KB flash, 20 KB RAM).  returns 0x00 (0000ms, 0461ms total)
T1088 000:463 JLINK_ExecCommand("ProjectFile = "F:\SmartDog\offical\STM32F10x_StdPeriph_Lib_V3.5.0\Project\MDK-ARM\JLinkSettings.ini"", ...)  returns 0x00 (0001ms, 0461ms total)
T1088 000:465 JLINK_ExecCommand("DisableConnectionTimeout", ...)  returns 0x00 (0000ms, 0462ms total)
T1088 000:467 JLINK_TIF_Select(JLINKARM_TIF_SWD)  returns 0x00 (0002ms, 0462ms total)
T1088 000:469 JLINK_SetSpeed(10000) (0001ms, 0464ms total)
T1088 000:470 JLINK_GetHardwareVersion()  returns 0x13880 (0000ms, 0465ms total)
T1088 000:470 JLINK_GetDLLVersion()  returns 43612 (0000ms, 0465ms total)
T1088 000:470 JLINK_GetFirmwareString(...) (0000ms, 0465ms total)
T1088 000:470 JLINK_GetDLLVersion()  returns 43612 (0000ms, 0465ms total)
T1088 000:470 JLINK_GetCompileDateTime() (0000ms, 0465ms total)
T1088 000:470 JLINK_GetFirmwareString(...) (0000ms, 0465ms total)
T1088 000:470 JLINK_GetHardwareVersion()  returns 0x13880 (0000ms, 0465ms total)
T1088 000:471 JLINK_GetId() >0x108 TIF>Found SWD-DP with ID 0x1BA01477 >0x33 TIF> >0x33 TIF> >0x35 TIF> >0x33 TIF> >0x35 TIF> >0x33 TIF> >0x33 TIF> >0x35 TIF> >0x33 TIF> >0x33 TIF> >0x35 TIF> >0x33 TIF> >0x33 TIF> >0x35 TIF> >0x33 TIF> >0x33 TIF> >0x35 TIF> >0x35 TIF> >0x35 TIF> >0x35 TIF> >0x35 TIF> >0x33 TIF> >0x33 TIF> >0x35 TIF> >0x33 TIF> >0x33 TIF> >0x33 TIF>TPIU fitted. >0x35 TIF> >0x33 TIF> >0x33 TIF> >0x35 TIF> >0x33 TIF> >0x33 TIF>  FPUnit: 6 code (BP) slots and 2 literal slots >0x35 TIF>
 >0x33 TIF> >0x33 TIF> >0x35 TIF> >0x33 TIF> >0x33 TIF> >0x35 TIF> >0x33 TIF> >0x33 TIF> >0x35 TIF> >0x33 TIF> >0x33 TIF>Found Cortex-M3 r1p1, Little endian. >0x33 TIF>  returns 0x1BA01477 (0028ms, 0465ms total)
T1088 000:499 JLINK_GetDebugInfo(0x100) -- Value=0xE00FF003  returns 0x00 (0000ms, 0493ms total)
T1088 000:499 JLINK_ReadMem (0xE00FFFF0, 0x0010 Bytes, ...) -- CPU is running -- CPU_ReadMem(16 bytes @ 0xE00FFFF0) -- Data:  0D 00 00 00 10 00 00 00 05 00 00 00 B1 00 00 00  returns 0x00 (0002ms, 0493ms total)
T1088 000:501 JLINK_ReadMem (0xE00FFFD0, 0x0020 Bytes, ...) -- CPU is running -- CPU_ReadMem(32 bytes @ 0xE00FFFD0) -- Data:  00 00 00 00 00 00 00 00 00 00 00 00 00 00 00 00 ...  returns 0x00 (0001ms, 0495ms total)
T1088 000:502 JLINK_ReadMem (0xE00FF000, 0x0018 Bytes, ...) -- CPU is running -- CPU_ReadMem(24 bytes @ 0xE00FF000) -- Data:  03 F0 F0 FF 03 20 F0 FF 03 30 F0 FF 03 10 F0 FF ...  returns 0x00 (0001ms, 0496ms total)
T1088 000:503 JLINK_ReadMemU32(0xE000ED00, 0x0001 Items, ...) -- CPU is running -- CPU_ReadMem(4 bytes @ 0xE000ED00) -- Data:  31 C2 1F 41  returns 0x01 (0001ms, 0497ms total)
T1088 000:504 JLINK_SetResetType(JLINKARM_RESET_TYPE_NORMAL)  returns JLINKARM_RESET_TYPE_NORMAL (0000ms, 0498ms total)
T1088 000:504 JLINK_Reset() >0x108 TIF>Found SWD-DP with ID 0x1BA01477 >0x33 TIF> >0x33 TIF> >0x35 TIF> >0x33 TIF> >0x35 TIF> >0x33 TIF> >0x33 TIF> >0x35 TIF> >0x33 TIF> >0x33 TIF> >0x35 TIF> >0x33 TIF> >0x33 TIF> >0x35 TIF> >0x33 TIF> >0x33 TIF> >0x35 TIF> >0x35 TIF> >0x35 TIF> >0x35 TIF> >0x35 TIF> >0x33 TIF> >0x33 TIF> >0x35 TIF> >0x33 TIF> >0x33 TIF> >0x33 TIF>TPIU fitted. >0x35 TIF> >0x33 TIF> >0x33 TIF> >0x35 TIF> >0x33 TIF> >0x33 TIF>  FPUnit: 6 code (BP) slots and 2 literal slots >0x35 TIF>
 >0x33 TIF> >0x33 TIF> >0x35 TIF> >0x33 TIF> >0x33 TIF> >0x35 TIF> >0x33 TIF> >0x33 TIF> >0x35 TIF> >0x33 TIF> >0x33 TIF>Found Cortex-M3 r1p1, Little endian. -- CPU is running -- CPU_WriteMem(4 bytes @ 0xE000EDF0) -- CPU is running -- CPU_WriteMem(4 bytes @ 0xE000EDFC) >0x35 TIF> -- CPU is running -- CPU_WriteMem(4 bytes @ 0xE000ED0C) -- CPU is running -- CPU_ReadMem(4 bytes @ 0xE000EDF0) -- CPU is running -- CPU_ReadMem(4 bytes @ 0xE000EDF0) -- CPU is running -- CPU_WriteMem(4 bytes @ 0xE000EDF0)
 -- CPU is running -- CPU_WriteMem(4 bytes @ 0xE000EDFC) -- CPU is running -- CPU_ReadMem(4 bytes @ 0xE000EDF0) (0051ms, 0498ms total)
T1088 000:555 JLINK_ReadReg(R15)  returns 0x08000148 (0000ms, 0549ms total)
T1088 000:555 JLINK_ReadReg(XPSR)  returns 0x01000000 (0000ms, 0549ms total)
T1088 000:555 JLINK_Halt()  returns 0x00 (0001ms, 0549ms total)
T1088 000:556 JLINK_IsHalted()  returns TRUE (0000ms, 0550ms total)
T1088 000:556 JLINK_ReadMemU32(0xE000EDF0, 0x0001 Items, ...) -- CPU_ReadMem(4 bytes @ 0xE000EDF0) -- Data:  03 00 03 00  returns 0x01 (0001ms, 0550ms total)
T1088 000:557 JLINK_WriteU32(0xE000EDF0, 0xA05F0003) -- CPU_WriteMem(4 bytes @ 0xE000EDF0)  returns 0x00 (0000ms, 0551ms total)
T1088 000:557 JLINK_WriteU32(0xE000EDFC, 0x01000000) -- CPU_WriteMem(4 bytes @ 0xE000EDFC)  returns 0x00 (0001ms, 0551ms total)
T1088 000:559 JLINK_GetHWStatus(...)  returns 0x00 (0000ms, 0552ms total)
T1088 000:559 JLINK_GetNumBPUnits(Type = 0xFFFFFF00)  returns 0x06 (0000ms, 0552ms total)
T1088 000:559 JLINK_GetNumBPUnits(Type = 0xF0)  returns 0x2000 (0000ms, 0552ms total)
T1088 000:559 JLINK_GetNumWPUnits()  returns 0x04 (0000ms, 0552ms total)
T1088 000:559 JLINK_GetSpeed()  returns 0xFA0 (0000ms, 0552ms total)
T1088 000:559 JLINK_ReadMemU32(0xE000E004, 0x0001 Items, ...) -- CPU_ReadMem(4 bytes @ 0xE000E004) -- Data:  01 00 00 00  returns 0x01 (0001ms, 0552ms total)
T1088 000:560 JLINK_ReadMemU32(0xE000E004, 0x0001 Items, ...) -- CPU_ReadMem(4 bytes @ 0xE000E004) -- Data:  01 00 00 00  returns 0x01 (0001ms, 0553ms total)
T1088 000:561 JLINK_WriteMem(0xE0001000, 0x001C Bytes, ...) -- Data:  01 00 00 00 00 00 00 00 00 00 00 00 00 00 00 00 ... -- CPU_WriteMem(28 bytes @ 0xE0001000)  returns 0x1C (0001ms, 0554ms total)
T1088 000:562 JLINK_ReadMem (0xE0001000, 0x001C Bytes, ...) -- CPU_ReadMem(28 bytes @ 0xE0001000) -- Data:  01 00 00 40 00 00 00 00 00 00 00 00 00 00 00 00 ...  returns 0x00 (0001ms, 0555ms total)
T1088 000:563 JLINK_ReadReg(R15)  returns 0x08000148 (0000ms, 0556ms total)
T1088 000:563 JLINK_ReadReg(XPSR)  returns 0x01000000 (0000ms, 0556ms total)
T1088 000:695 JLINK_SetResetType(JLINKARM_RESET_TYPE_NORMAL)  returns JLINKARM_RESET_TYPE_NORMAL (0000ms, 0556ms total)
T1088 000:695 JLINK_Reset() >0x108 TIF>Found SWD-DP with ID 0x1BA01477 >0x33 TIF> >0x33 TIF> >0x35 TIF> >0x33 TIF> >0x35 TIF> >0x33 TIF> >0x33 TIF> >0x35 TIF> >0x33 TIF> >0x33 TIF> >0x35 TIF> >0x33 TIF> >0x33 TIF> >0x35 TIF> >0x33 TIF> >0x33 TIF> >0x35 TIF> >0x35 TIF> >0x35 TIF> >0x35 TIF> >0x35 TIF> >0x33 TIF> >0x33 TIF> >0x35 TIF> >0x33 TIF> >0x33 TIF> >0x33 TIF>TPIU fitted. >0x35 TIF> >0x33 TIF> >0x33 TIF> >0x35 TIF> >0x33 TIF> >0x33 TIF>  FPUnit: 6 code (BP) slots and 2 literal slots >0x35 TIF>
 >0x33 TIF> >0x33 TIF> >0x35 TIF> >0x33 TIF> >0x33 TIF> >0x35 TIF> >0x33 TIF> >0x33 TIF> >0x35 TIF> >0x33 TIF> >0x33 TIF>Found Cortex-M3 r1p1, Little endian. -- CPU_WriteMem(4 bytes @ 0xE000EDF0) -- CPU_WriteMem(4 bytes @ 0xE000EDFC) >0x35 TIF> -- CPU_WriteMem(4 bytes @ 0xE000ED0C) -- CPU_ReadMem(4 bytes @ 0xE000EDF0) -- CPU_ReadMem(4 bytes @ 0xE000EDF0) -- CPU_WriteMem(4 bytes @ 0xE000EDF0) -- CPU_WriteMem(4 bytes @ 0xE000EDFC) -- CPU is running -- CPU_ReadMem(4 bytes @ 0xE000EDF0)
 (0053ms, 0556ms total)
T1088 000:748 JLINK_ReadReg(R15)  returns 0x08000148 (0000ms, 0609ms total)
T1088 000:748 JLINK_ReadReg(XPSR)  returns 0x01000000 (0000ms, 0609ms total)
T1088 000:748 JLINK_ReadMem (0x08000148, 0x003C Bytes, ...) -- CPU_ReadMem(128 bytes @ 0x08000140) -- Updating C cache (128 bytes @ 0x08000140) -- Read from C cache (60 bytes @ 0x08000148) -- Data:  06 48 80 47 06 48 00 47 FE E7 FE E7 FE E7 FE E7 ...  returns 0x00 (0002ms, 0609ms total)
T1088 000:899 JLINK_ReadMem (0x40010800, 0x0018 Bytes, ...) -- CPU_ReadMem(24 bytes @ 0x40010800) -- Data:  44 44 44 44 44 44 84 88 00 00 00 00 00 A0 00 00 ...  returns 0x00 (0001ms, 0611ms total)
T1088 000:900 JLINK_ReadMem (0x40010818, 0x0004 Bytes, ...) -- CPU_ReadMem(4 bytes @ 0x40010818) -- Data:  00 00 00 00  returns 0x00 (0001ms, 0612ms total)
T1088 000:901 JLINK_ReadMem (0x40010800, 0x0004 Bytes, ...) -- CPU_ReadMem(4 bytes @ 0x40010800) -- Data:  44 44 44 44  returns 0x00 (0001ms, 0613ms total)
T1088 000:902 JLINK_ReadMem (0x40010800, 0x0004 Bytes, ...) -- CPU_ReadMem(4 bytes @ 0x40010800) -- Data:  44 44 44 44  returns 0x00 (0001ms, 0614ms total)
T1088 000:903 JLINK_ReadMem (0x40010800, 0x0004 Bytes, ...) -- CPU_ReadMem(4 bytes @ 0x40010800) -- Data:  44 44 44 44  returns 0x00 (0001ms, 0615ms total)
T1088 000:904 JLINK_ReadMem (0x40010800, 0x0004 Bytes, ...) -- CPU_ReadMem(4 bytes @ 0x40010800) -- Data:  44 44 44 44  returns 0x00 (0002ms, 0616ms total)
T1088 000:906 JLINK_ReadMem (0x40010800, 0x0004 Bytes, ...) -- CPU_ReadMem(4 bytes @ 0x40010800) -- Data:  44 44 44 44  returns 0x00 (0001ms, 0618ms total)
T1088 000:907 JLINK_ReadMem (0x40010800, 0x0004 Bytes, ...) -- CPU_ReadMem(4 bytes @ 0x40010800) -- Data:  44 44 44 44  returns 0x00 (0001ms, 0619ms total)
T1088 000:908 JLINK_ReadMem (0x40010800, 0x0004 Bytes, ...) -- CPU_ReadMem(4 bytes @ 0x40010800) -- Data:  44 44 44 44  returns 0x00 (0000ms, 0620ms total)
T1088 000:909 JLINK_ReadMem (0x40010800, 0x0004 Bytes, ...) -- CPU_ReadMem(4 bytes @ 0x40010800) -- Data:  44 44 44 44  returns 0x00 (0000ms, 0621ms total)
T1088 000:909 JLINK_ReadMem (0x40010800, 0x0004 Bytes, ...) -- CPU_ReadMem(4 bytes @ 0x40010800) -- Data:  44 44 44 44  returns 0x00 (0001ms, 0621ms total)
T1088 000:910 JLINK_ReadMem (0x40010800, 0x0004 Bytes, ...) -- CPU_ReadMem(4 bytes @ 0x40010800) -- Data:  44 44 44 44  returns 0x00 (0001ms, 0622ms total)
T1088 000:911 JLINK_ReadMem (0x40010800, 0x0004 Bytes, ...) -- CPU_ReadMem(4 bytes @ 0x40010800) -- Data:  44 44 44 44  returns 0x00 (0001ms, 0623ms total)
T1088 000:912 JLINK_ReadMem (0x40010800, 0x0004 Bytes, ...) -- CPU_ReadMem(4 bytes @ 0x40010800) -- Data:  44 44 44 44  returns 0x00 (0001ms, 0624ms total)
T1088 000:913 JLINK_ReadMem (0x40010800, 0x0004 Bytes, ...) -- CPU_ReadMem(4 bytes @ 0x40010800) -- Data:  44 44 44 44  returns 0x00 (0001ms, 0625ms total)
T1088 000:914 JLINK_ReadMem (0x40010800, 0x0004 Bytes, ...) -- CPU_ReadMem(4 bytes @ 0x40010800) -- Data:  44 44 44 44  returns 0x00 (0001ms, 0626ms total)
T1088 000:915 JLINK_ReadMem (0x40010800, 0x0004 Bytes, ...) -- CPU_ReadMem(4 bytes @ 0x40010800) -- Data:  44 44 44 44  returns 0x00 (0001ms, 0627ms total)
T1088 000:916 JLINK_ReadMem (0x40010800, 0x0004 Bytes, ...) -- CPU_ReadMem(4 bytes @ 0x40010800) -- Data:  44 44 44 44  returns 0x00 (0001ms, 0628ms total)
T1088 000:917 JLINK_ReadMem (0x40010800, 0x0004 Bytes, ...) -- CPU_ReadMem(4 bytes @ 0x40010800) -- Data:  44 44 44 44  returns 0x00 (0001ms, 0629ms total)
T1088 000:919 JLINK_ReadMem (0x40010804, 0x0004 Bytes, ...) -- CPU_ReadMem(4 bytes @ 0x40010804) -- Data:  44 44 84 88  returns 0x00 (0001ms, 0630ms total)
T1088 000:920 JLINK_ReadMem (0x40010804, 0x0004 Bytes, ...) -- CPU_ReadMem(4 bytes @ 0x40010804) -- Data:  44 44 84 88  returns 0x00 (0001ms, 0631ms total)
T1088 000:921 JLINK_ReadMem (0x40010804, 0x0004 Bytes, ...) -- CPU_ReadMem(4 bytes @ 0x40010804) -- Data:  44 44 84 88  returns 0x00 (0000ms, 0632ms total)
T1088 000:921 JLINK_ReadMem (0x40010804, 0x0004 Bytes, ...) -- CPU_ReadMem(4 bytes @ 0x40010804) -- Data:  44 44 84 88  returns 0x00 (0001ms, 0632ms total)
T1088 000:922 JLINK_ReadMem (0x40010804, 0x0004 Bytes, ...) -- CPU_ReadMem(4 bytes @ 0x40010804) -- Data:  44 44 84 88  returns 0x00 (0000ms, 0633ms total)
T1088 000:922 JLINK_ReadMem (0x40010804, 0x0004 Bytes, ...) -- CPU_ReadMem(4 bytes @ 0x40010804) -- Data:  44 44 84 88  returns 0x00 (0001ms, 0633ms total)
T1088 000:923 JLINK_ReadMem (0x40010804, 0x0004 Bytes, ...) -- CPU_ReadMem(4 bytes @ 0x40010804) -- Data:  44 44 84 88  returns 0x00 (0001ms, 0634ms total)
T1088 000:924 JLINK_ReadMem (0x40010804, 0x0004 Bytes, ...) -- CPU_ReadMem(4 bytes @ 0x40010804) -- Data:  44 44 84 88  returns 0x00 (0001ms, 0635ms total)
T1088 000:925 JLINK_ReadMem (0x40010804, 0x0004 Bytes, ...) -- CPU_ReadMem(4 bytes @ 0x40010804) -- Data:  44 44 84 88  returns 0x00 (0001ms, 0636ms total)
T1088 000:926 JLINK_ReadMem (0x40010804, 0x0004 Bytes, ...) -- CPU_ReadMem(4 bytes @ 0x40010804) -- Data:  44 44 84 88  returns 0x00 (0001ms, 0637ms total)
T1088 000:927 JLINK_ReadMem (0x40010804, 0x0004 Bytes, ...) -- CPU_ReadMem(4 bytes @ 0x40010804) -- Data:  44 44 84 88  returns 0x00 (0001ms, 0638ms total)
T1088 000:928 JLINK_ReadMem (0x40010804, 0x0004 Bytes, ...) -- CPU_ReadMem(4 bytes @ 0x40010804) -- Data:  44 44 84 88  returns 0x00 (0001ms, 0639ms total)
T1088 000:929 JLINK_ReadMem (0x40010804, 0x0004 Bytes, ...) -- CPU_ReadMem(4 bytes @ 0x40010804) -- Data:  44 44 84 88  returns 0x00 (0001ms, 0640ms total)
T1088 000:930 JLINK_ReadMem (0x40010804, 0x0004 Bytes, ...) -- CPU_ReadMem(4 bytes @ 0x40010804) -- Data:  44 44 84 88  returns 0x00 (0001ms, 0641ms total)
T1088 000:931 JLINK_ReadMem (0x40010804, 0x0004 Bytes, ...) -- CPU_ReadMem(4 bytes @ 0x40010804) -- Data:  44 44 84 88  returns 0x00 (0001ms, 0642ms total)
T1088 000:932 JLINK_ReadMem (0x40010804, 0x0004 Bytes, ...) -- CPU_ReadMem(4 bytes @ 0x40010804) -- Data:  44 44 84 88  returns 0x00 (0000ms, 0643ms total)
T1088 000:932 JLINK_ReadMem (0x40010804, 0x0004 Bytes, ...) -- CPU_ReadMem(4 bytes @ 0x40010804) -- Data:  44 44 84 88  returns 0x00 (0001ms, 0643ms total)
T1088 000:933 JLINK_ReadMem (0x4001080C, 0x0004 Bytes, ...) -- CPU_ReadMem(4 bytes @ 0x4001080C) -- Data:  00 A0 00 00  returns 0x00 (0001ms, 0644ms total)
T1088 000:934 JLINK_ReadMem (0x4001080C, 0x0004 Bytes, ...) -- CPU_ReadMem(4 bytes @ 0x4001080C) -- Data:  00 A0 00 00  returns 0x00 (0001ms, 0645ms total)
T1088 000:935 JLINK_ReadMem (0x4001080C, 0x0004 Bytes, ...) -- CPU_ReadMem(4 bytes @ 0x4001080C) -- Data:  00 A0 00 00  returns 0x00 (0001ms, 0646ms total)
T1088 000:936 JLINK_ReadMem (0x4001080C, 0x0004 Bytes, ...) -- CPU_ReadMem(4 bytes @ 0x4001080C) -- Data:  00 A0 00 00  returns 0x00 (0001ms, 0647ms total)
T1088 000:937 JLINK_ReadMem (0x4001080C, 0x0004 Bytes, ...) -- CPU_ReadMem(4 bytes @ 0x4001080C) -- Data:  00 A0 00 00  returns 0x00 (0001ms, 0648ms total)
T1088 000:938 JLINK_ReadMem (0x4001080C, 0x0004 Bytes, ...) -- CPU_ReadMem(4 bytes @ 0x4001080C) -- Data:  00 A0 00 00  returns 0x00 (0001ms, 0649ms total)
T1088 000:939 JLINK_ReadMem (0x4001080C, 0x0004 Bytes, ...) -- CPU_ReadMem(4 bytes @ 0x4001080C) -- Data:  00 A0 00 00  returns 0x00 (0001ms, 0650ms total)
T1088 000:940 JLINK_ReadMem (0x4001080C, 0x0004 Bytes, ...) -- CPU_ReadMem(4 bytes @ 0x4001080C) -- Data:  00 A0 00 00  returns 0x00 (0001ms, 0651ms total)
T1088 000:941 JLINK_ReadMem (0x4001080C, 0x0004 Bytes, ...) -- CPU_ReadMem(4 bytes @ 0x4001080C) -- Data:  00 A0 00 00  returns 0x00 (0001ms, 0652ms total)
T1088 000:942 JLINK_ReadMem (0x4001080C, 0x0004 Bytes, ...) -- CPU_ReadMem(4 bytes @ 0x4001080C) -- Data:  00 A0 00 00  returns 0x00 (0001ms, 0653ms total)
T1088 000:943 JLINK_ReadMem (0x4001080C, 0x0004 Bytes, ...) -- CPU_ReadMem(4 bytes @ 0x4001080C) -- Data:  00 A0 00 00  returns 0x00 (0001ms, 0654ms total)
T1088 000:944 JLINK_ReadMem (0x4001080C, 0x0004 Bytes, ...) -- CPU_ReadMem(4 bytes @ 0x4001080C) -- Data:  00 A0 00 00  returns 0x00 (0001ms, 0655ms total)
T1088 000:945 JLINK_ReadMem (0x4001080C, 0x0004 Bytes, ...) -- CPU_ReadMem(4 bytes @ 0x4001080C) -- Data:  00 A0 00 00  returns 0x00 (0000ms, 0656ms total)
T1088 000:945 JLINK_ReadMem (0x4001080C, 0x0004 Bytes, ...) -- CPU_ReadMem(4 bytes @ 0x4001080C) -- Data:  00 A0 00 00  returns 0x00 (0001ms, 0656ms total)
T1088 000:946 JLINK_ReadMem (0x4001080C, 0x0004 Bytes, ...) -- CPU_ReadMem(4 bytes @ 0x4001080C) -- Data:  00 A0 00 00  returns 0x00 (0001ms, 0657ms total)
T1088 000:947 JLINK_ReadMem (0x4001080C, 0x0004 Bytes, ...) -- CPU_ReadMem(4 bytes @ 0x4001080C) -- Data:  00 A0 00 00  returns 0x00 (0001ms, 0658ms total)
T1088 000:948 JLINK_ReadMem (0x4001080C, 0x0004 Bytes, ...) -- CPU_ReadMem(4 bytes @ 0x4001080C) -- Data:  00 A0 00 00  returns 0x00 (0001ms, 0659ms total)
T1088 000:975 JLINK_ReadMem (0x40010C00, 0x0018 Bytes, ...) -- CPU_ReadMem(24 bytes @ 0x40010C00) -- Data:  44 44 48 44 44 44 44 44 00 00 00 00 10 00 00 00 ...  returns 0x00 (0001ms, 0660ms total)
T1088 000:976 JLINK_ReadMem (0x40010C18, 0x0004 Bytes, ...) -- CPU_ReadMem(4 bytes @ 0x40010C18) -- Data:  00 00 00 00  returns 0x00 (0001ms, 0661ms total)
T1088 000:977 JLINK_ReadMem (0x40010C00, 0x0004 Bytes, ...) -- CPU_ReadMem(4 bytes @ 0x40010C00) -- Data:  44 44 48 44  returns 0x00 (0001ms, 0662ms total)
T1088 000:978 JLINK_ReadMem (0x40010C00, 0x0004 Bytes, ...) -- CPU_ReadMem(4 bytes @ 0x40010C00) -- Data:  44 44 48 44  returns 0x00 (0000ms, 0663ms total)
T1088 000:978 JLINK_ReadMem (0x40010C00, 0x0004 Bytes, ...) -- CPU_ReadMem(4 bytes @ 0x40010C00) -- Data:  44 44 48 44  returns 0x00 (0001ms, 0663ms total)
T1088 000:979 JLINK_ReadMem (0x40010C00, 0x0004 Bytes, ...) -- CPU_ReadMem(4 bytes @ 0x40010C00) -- Data:  44 44 48 44  returns 0x00 (0001ms, 0664ms total)
T1088 000:980 JLINK_ReadMem (0x40010C00, 0x0004 Bytes, ...) -- CPU_ReadMem(4 bytes @ 0x40010C00) -- Data:  44 44 48 44  returns 0x00 (0001ms, 0665ms total)
T1088 000:981 JLINK_ReadMem (0x40010C00, 0x0004 Bytes, ...) -- CPU_ReadMem(4 bytes @ 0x40010C00) -- Data:  44 44 48 44  returns 0x00 (0001ms, 0666ms total)
T1088 000:982 JLINK_ReadMem (0x40010C00, 0x0004 Bytes, ...) -- CPU_ReadMem(4 bytes @ 0x40010C00) -- Data:  44 44 48 44  returns 0x00 (0001ms, 0667ms total)
T1088 000:983 JLINK_ReadMem (0x40010C00, 0x0004 Bytes, ...) -- CPU_ReadMem(4 bytes @ 0x40010C00) -- Data:  44 44 48 44  returns 0x00 (0001ms, 0668ms total)
T1088 000:984 JLINK_ReadMem (0x40010C00, 0x0004 Bytes, ...) -- CPU_ReadMem(4 bytes @ 0x40010C00) -- Data:  44 44 48 44  returns 0x00 (0001ms, 0669ms total)
T1088 000:985 JLINK_ReadMem (0x40010C00, 0x0004 Bytes, ...) -- CPU_ReadMem(4 bytes @ 0x40010C00) -- Data:  44 44 48 44  returns 0x00 (0001ms, 0670ms total)
T1088 000:986 JLINK_ReadMem (0x40010C00, 0x0004 Bytes, ...) -- CPU_ReadMem(4 bytes @ 0x40010C00) -- Data:  44 44 48 44  returns 0x00 (0001ms, 0671ms total)
T1088 000:987 JLINK_ReadMem (0x40010C00, 0x0004 Bytes, ...) -- CPU_ReadMem(4 bytes @ 0x40010C00) -- Data:  44 44 48 44  returns 0x00 (0001ms, 0672ms total)
T1088 000:988 JLINK_ReadMem (0x40010C00, 0x0004 Bytes, ...) -- CPU_ReadMem(4 bytes @ 0x40010C00) -- Data:  44 44 48 44  returns 0x00 (0001ms, 0673ms total)
T1088 000:989 JLINK_ReadMem (0x40010C00, 0x0004 Bytes, ...) -- CPU_ReadMem(4 bytes @ 0x40010C00) -- Data:  44 44 48 44  returns 0x00 (0001ms, 0674ms total)
T1088 000:990 JLINK_ReadMem (0x40010C00, 0x0004 Bytes, ...) -- CPU_ReadMem(4 bytes @ 0x40010C00) -- Data:  44 44 48 44  returns 0x00 (0001ms, 0675ms total)
T1088 000:991 JLINK_ReadMem (0x40010C00, 0x0004 Bytes, ...) -- CPU_ReadMem(4 bytes @ 0x40010C00) -- Data:  44 44 48 44  returns 0x00 (0001ms, 0676ms total)
T1088 000:992 JLINK_ReadMem (0x40010C00, 0x0004 Bytes, ...) -- CPU_ReadMem(4 bytes @ 0x40010C00) -- Data:  44 44 48 44  returns 0x00 (0001ms, 0677ms total)
T1088 000:993 JLINK_ReadMem (0x40010C04, 0x0004 Bytes, ...) -- CPU_ReadMem(4 bytes @ 0x40010C04) -- Data:  44 44 44 44  returns 0x00 (0001ms, 0678ms total)
T1088 000:994 JLINK_ReadMem (0x40010C04, 0x0004 Bytes, ...) -- CPU_ReadMem(4 bytes @ 0x40010C04) -- Data:  44 44 44 44  returns 0x00 (0001ms, 0679ms total)
T1088 000:995 JLINK_ReadMem (0x40010C04, 0x0004 Bytes, ...) -- CPU_ReadMem(4 bytes @ 0x40010C04) -- Data:  44 44 44 44  returns 0x00 (0001ms, 0680ms total)
T1088 000:996 JLINK_ReadMem (0x40010C04, 0x0004 Bytes, ...) -- CPU_ReadMem(4 bytes @ 0x40010C04) -- Data:  44 44 44 44  returns 0x00 (0001ms, 0681ms total)
T1088 000:997 JLINK_ReadMem (0x40010C04, 0x0004 Bytes, ...) -- CPU_ReadMem(4 bytes @ 0x40010C04) -- Data:  44 44 44 44  returns 0x00 (0001ms, 0682ms total)
T1088 000:998 JLINK_ReadMem (0x40010C04, 0x0004 Bytes, ...) -- CPU_ReadMem(4 bytes @ 0x40010C04) -- Data:  44 44 44 44  returns 0x00 (0001ms, 0683ms total)
T1088 000:999 JLINK_ReadMem (0x40010C04, 0x0004 Bytes, ...) -- CPU_ReadMem(4 bytes @ 0x40010C04) -- Data:  44 44 44 44  returns 0x00 (0001ms, 0684ms total)
T1088 001:000 JLINK_ReadMem (0x40010C04, 0x0004 Bytes, ...) -- CPU_ReadMem(4 bytes @ 0x40010C04) -- Data:  44 44 44 44  returns 0x00 (0002ms, 0685ms total)
T1088 001:002 JLINK_ReadMem (0x40010C04, 0x0004 Bytes, ...) -- CPU_ReadMem(4 bytes @ 0x40010C04) -- Data:  44 44 44 44  returns 0x00 (0002ms, 0687ms total)
T1088 001:004 JLINK_ReadMem (0x40010C04, 0x0004 Bytes, ...) -- CPU_ReadMem(4 bytes @ 0x40010C04) -- Data:  44 44 44 44  returns 0x00 (0001ms, 0689ms total)
T1088 001:005 JLINK_ReadMem (0x40010C04, 0x0004 Bytes, ...) -- CPU_ReadMem(4 bytes @ 0x40010C04) -- Data:  44 44 44 44  returns 0x00 (0001ms, 0690ms total)
T1088 001:006 JLINK_ReadMem (0x40010C04, 0x0004 Bytes, ...) -- CPU_ReadMem(4 bytes @ 0x40010C04) -- Data:  44 44 44 44  returns 0x00 (0001ms, 0691ms total)
T1088 001:007 JLINK_ReadMem (0x40010C04, 0x0004 Bytes, ...) -- CPU_ReadMem(4 bytes @ 0x40010C04) -- Data:  44 44 44 44  returns 0x00 (0001ms, 0692ms total)
T1088 001:008 JLINK_ReadMem (0x40010C04, 0x0004 Bytes, ...) -- CPU_ReadMem(4 bytes @ 0x40010C04) -- Data:  44 44 44 44  returns 0x00 (0001ms, 0693ms total)
T1088 001:009 JLINK_ReadMem (0x40010C04, 0x0004 Bytes, ...) -- CPU_ReadMem(4 bytes @ 0x40010C04) -- Data:  44 44 44 44  returns 0x00 (0001ms, 0694ms total)
T1088 001:010 JLINK_ReadMem (0x40010C04, 0x0004 Bytes, ...) -- CPU_ReadMem(4 bytes @ 0x40010C04) -- Data:  44 44 44 44  returns 0x00 (0000ms, 0695ms total)
T1088 001:010 JLINK_ReadMem (0x40010C04, 0x0004 Bytes, ...) -- CPU_ReadMem(4 bytes @ 0x40010C04) -- Data:  44 44 44 44  returns 0x00 (0001ms, 0695ms total)
T1088 001:011 JLINK_ReadMem (0x40010C0C, 0x0004 Bytes, ...) -- CPU_ReadMem(4 bytes @ 0x40010C0C) -- Data:  10 00 00 00  returns 0x00 (0001ms, 0696ms total)
T1088 001:012 JLINK_ReadMem (0x40010C0C, 0x0004 Bytes, ...) -- CPU_ReadMem(4 bytes @ 0x40010C0C) -- Data:  10 00 00 00  returns 0x00 (0001ms, 0697ms total)
T1088 001:013 JLINK_ReadMem (0x40010C0C, 0x0004 Bytes, ...) -- CPU_ReadMem(4 bytes @ 0x40010C0C) -- Data:  10 00 00 00  returns 0x00 (0001ms, 0698ms total)
T1088 001:014 JLINK_ReadMem (0x40010C0C, 0x0004 Bytes, ...) -- CPU_ReadMem(4 bytes @ 0x40010C0C) -- Data:  10 00 00 00  returns 0x00 (0001ms, 0699ms total)
T1088 001:015 JLINK_ReadMem (0x40010C0C, 0x0004 Bytes, ...) -- CPU_ReadMem(4 bytes @ 0x40010C0C) -- Data:  10 00 00 00  returns 0x00 (0001ms, 0700ms total)
T1088 001:016 JLINK_ReadMem (0x40010C0C, 0x0004 Bytes, ...) -- CPU_ReadMem(4 bytes @ 0x40010C0C) -- Data:  10 00 00 00  returns 0x00 (0001ms, 0701ms total)
T1088 001:017 JLINK_ReadMem (0x40010C0C, 0x0004 Bytes, ...) -- CPU_ReadMem(4 bytes @ 0x40010C0C) -- Data:  10 00 00 00  returns 0x00 (0001ms, 0702ms total)
T1088 001:018 JLINK_ReadMem (0x40010C0C, 0x0004 Bytes, ...) -- CPU_ReadMem(4 bytes @ 0x40010C0C) -- Data:  10 00 00 00  returns 0x00 (0001ms, 0703ms total)
T1088 001:019 JLINK_ReadMem (0x40010C0C, 0x0004 Bytes, ...) -- CPU_ReadMem(4 bytes @ 0x40010C0C) -- Data:  10 00 00 00  returns 0x00 (0001ms, 0704ms total)
T1088 001:020 JLINK_ReadMem (0x40010C0C, 0x0004 Bytes, ...) -- CPU_ReadMem(4 bytes @ 0x40010C0C) -- Data:  10 00 00 00  returns 0x00 (0001ms, 0705ms total)
T1088 001:021 JLINK_ReadMem (0x40010C0C, 0x0004 Bytes, ...) -- CPU_ReadMem(4 bytes @ 0x40010C0C) -- Data:  10 00 00 00  returns 0x00 (0001ms, 0706ms total)
T1088 001:022 JLINK_ReadMem (0x40010C0C, 0x0004 Bytes, ...) -- CPU_ReadMem(4 bytes @ 0x40010C0C) -- Data:  10 00 00 00  returns 0x00 (0001ms, 0707ms total)
T1088 001:023 JLINK_ReadMem (0x40010C0C, 0x0004 Bytes, ...) -- CPU_ReadMem(4 bytes @ 0x40010C0C) -- Data:  10 00 00 00  returns 0x00 (0001ms, 0708ms total)
T1088 001:024 JLINK_ReadMem (0x40010C0C, 0x0004 Bytes, ...) -- CPU_ReadMem(4 bytes @ 0x40010C0C) -- Data:  10 00 00 00  returns 0x00 (0001ms, 0709ms total)
T1088 001:025 JLINK_ReadMem (0x40010C0C, 0x0004 Bytes, ...) -- CPU_ReadMem(4 bytes @ 0x40010C0C) -- Data:  10 00 00 00  returns 0x00 (0001ms, 0710ms total)
T1088 001:026 JLINK_ReadMem (0x40010C0C, 0x0004 Bytes, ...) -- CPU_ReadMem(4 bytes @ 0x40010C0C) -- Data:  10 00 00 00  returns 0x00 (0001ms, 0711ms total)
T1088 001:027 JLINK_ReadMem (0x40010C0C, 0x0004 Bytes, ...) -- CPU_ReadMem(4 bytes @ 0x40010C0C) -- Data:  10 00 00 00  returns 0x00 (0001ms, 0712ms total)
T1088 001:049 JLINK_ReadMem (0x40011000, 0x0018 Bytes, ...) -- CPU_ReadMem(24 bytes @ 0x40011000) -- Data:  44 44 44 44 44 44 44 44 00 00 00 00 00 00 00 00 ...  returns 0x00 (0001ms, 0713ms total)
T1088 001:050 JLINK_ReadMem (0x40011018, 0x0004 Bytes, ...) -- CPU_ReadMem(4 bytes @ 0x40011018) -- Data:  00 00 00 00  returns 0x00 (0001ms, 0714ms total)
T1088 001:051 JLINK_ReadMem (0x40011000, 0x0004 Bytes, ...) -- CPU_ReadMem(4 bytes @ 0x40011000) -- Data:  44 44 44 44  returns 0x00 (0001ms, 0715ms total)
T1088 001:052 JLINK_ReadMem (0x40011000, 0x0004 Bytes, ...) -- CPU_ReadMem(4 bytes @ 0x40011000) -- Data:  44 44 44 44  returns 0x00 (0001ms, 0716ms total)
T1088 001:053 JLINK_ReadMem (0x40011000, 0x0004 Bytes, ...) -- CPU_ReadMem(4 bytes @ 0x40011000) -- Data:  44 44 44 44  returns 0x00 (0001ms, 0717ms total)
T1088 001:054 JLINK_ReadMem (0x40011000, 0x0004 Bytes, ...) -- CPU_ReadMem(4 bytes @ 0x40011000) -- Data:  44 44 44 44  returns 0x00 (0001ms, 0718ms total)
T1088 001:055 JLINK_ReadMem (0x40011000, 0x0004 Bytes, ...) -- CPU_ReadMem(4 bytes @ 0x40011000) -- Data:  44 44 44 44  returns 0x00 (0001ms, 0719ms total)
T1088 001:056 JLINK_ReadMem (0x40011000, 0x0004 Bytes, ...) -- CPU_ReadMem(4 bytes @ 0x40011000) -- Data:  44 44 44 44  returns 0x00 (0001ms, 0720ms total)
T1088 001:057 JLINK_ReadMem (0x40011000, 0x0004 Bytes, ...) -- CPU_ReadMem(4 bytes @ 0x40011000) -- Data:  44 44 44 44  returns 0x00 (0001ms, 0721ms total)
T1088 001:058 JLINK_ReadMem (0x40011000, 0x0004 Bytes, ...) -- CPU_ReadMem(4 bytes @ 0x40011000) -- Data:  44 44 44 44  returns 0x00 (0001ms, 0722ms total)
T1088 001:059 JLINK_ReadMem (0x40011000, 0x0004 Bytes, ...) -- CPU_ReadMem(4 bytes @ 0x40011000) -- Data:  44 44 44 44  returns 0x00 (0001ms, 0723ms total)
T1088 001:060 JLINK_ReadMem (0x40011000, 0x0004 Bytes, ...) -- CPU_ReadMem(4 bytes @ 0x40011000) -- Data:  44 44 44 44  returns 0x00 (0001ms, 0724ms total)
T1088 001:061 JLINK_ReadMem (0x40011000, 0x0004 Bytes, ...) -- CPU_ReadMem(4 bytes @ 0x40011000) -- Data:  44 44 44 44  returns 0x00 (0000ms, 0725ms total)
T1088 001:061 JLINK_ReadMem (0x40011000, 0x0004 Bytes, ...) -- CPU_ReadMem(4 bytes @ 0x40011000) -- Data:  44 44 44 44  returns 0x00 (0001ms, 0725ms total)
T1088 001:062 JLINK_ReadMem (0x40011000, 0x0004 Bytes, ...) -- CPU_ReadMem(4 bytes @ 0x40011000) -- Data:  44 44 44 44  returns 0x00 (0001ms, 0726ms total)
T1088 001:063 JLINK_ReadMem (0x40011000, 0x0004 Bytes, ...) -- CPU_ReadMem(4 bytes @ 0x40011000) -- Data:  44 44 44 44  returns 0x00 (0001ms, 0727ms total)
T1088 001:064 JLINK_ReadMem (0x40011000, 0x0004 Bytes, ...) -- CPU_ReadMem(4 bytes @ 0x40011000) -- Data:  44 44 44 44  returns 0x00 (0001ms, 0728ms total)
T1088 001:065 JLINK_ReadMem (0x40011000, 0x0004 Bytes, ...) -- CPU_ReadMem(4 bytes @ 0x40011000) -- Data:  44 44 44 44  returns 0x00 (0001ms, 0729ms total)
T1088 001:066 JLINK_ReadMem (0x40011000, 0x0004 Bytes, ...) -- CPU_ReadMem(4 bytes @ 0x40011000) -- Data:  44 44 44 44  returns 0x00 (0001ms, 0730ms total)
T1088 001:067 JLINK_ReadMem (0x40011004, 0x0004 Bytes, ...) -- CPU_ReadMem(4 bytes @ 0x40011004) -- Data:  44 44 44 44  returns 0x00 (0001ms, 0731ms total)
T1088 001:068 JLINK_ReadMem (0x40011004, 0x0004 Bytes, ...) -- CPU_ReadMem(4 bytes @ 0x40011004) -- Data:  44 44 44 44  returns 0x00 (0000ms, 0732ms total)
T1088 001:068 JLINK_ReadMem (0x40011004, 0x0004 Bytes, ...) -- CPU_ReadMem(4 bytes @ 0x40011004) -- Data:  44 44 44 44  returns 0x00 (0001ms, 0732ms total)
T1088 001:069 JLINK_ReadMem (0x40011004, 0x0004 Bytes, ...) -- CPU_ReadMem(4 bytes @ 0x40011004) -- Data:  44 44 44 44  returns 0x00 (0001ms, 0733ms total)
T1088 001:070 JLINK_ReadMem (0x40011004, 0x0004 Bytes, ...) -- CPU_ReadMem(4 bytes @ 0x40011004) -- Data:  44 44 44 44  returns 0x00 (0001ms, 0734ms total)
T1088 001:071 JLINK_ReadMem (0x40011004, 0x0004 Bytes, ...) -- CPU_ReadMem(4 bytes @ 0x40011004) -- Data:  44 44 44 44  returns 0x00 (0001ms, 0735ms total)
T1088 001:072 JLINK_ReadMem (0x40011004, 0x0004 Bytes, ...) -- CPU_ReadMem(4 bytes @ 0x40011004) -- Data:  44 44 44 44  returns 0x00 (0001ms, 0736ms total)
T1088 001:073 JLINK_ReadMem (0x40011004, 0x0004 Bytes, ...) -- CPU_ReadMem(4 bytes @ 0x40011004) -- Data:  44 44 44 44  returns 0x00 (0001ms, 0737ms total)
T1088 001:074 JLINK_ReadMem (0x40011004, 0x0004 Bytes, ...) -- CPU_ReadMem(4 bytes @ 0x40011004) -- Data:  44 44 44 44  returns 0x00 (0001ms, 0738ms total)
T1088 001:075 JLINK_ReadMem (0x40011004, 0x0004 Bytes, ...) -- CPU_ReadMem(4 bytes @ 0x40011004) -- Data:  44 44 44 44  returns 0x00 (0001ms, 0739ms total)
T1088 001:076 JLINK_ReadMem (0x40011004, 0x0004 Bytes, ...) -- CPU_ReadMem(4 bytes @ 0x40011004) -- Data:  44 44 44 44  returns 0x00 (0002ms, 0740ms total)
T1088 001:078 JLINK_ReadMem (0x40011004, 0x0004 Bytes, ...) -- CPU_ReadMem(4 bytes @ 0x40011004) -- Data:  44 44 44 44  returns 0x00 (0001ms, 0742ms total)
T1088 001:079 JLINK_ReadMem (0x40011004, 0x0004 Bytes, ...) -- CPU_ReadMem(4 bytes @ 0x40011004) -- Data:  44 44 44 44  returns 0x00 (0000ms, 0743ms total)
T1088 001:079 JLINK_ReadMem (0x40011004, 0x0004 Bytes, ...) -- CPU_ReadMem(4 bytes @ 0x40011004) -- Data:  44 44 44 44  returns 0x00 (0001ms, 0743ms total)
T1088 001:080 JLINK_ReadMem (0x40011004, 0x0004 Bytes, ...) -- CPU_ReadMem(4 bytes @ 0x40011004) -- Data:  44 44 44 44  returns 0x00 (0001ms, 0744ms total)
T1088 001:081 JLINK_ReadMem (0x40011004, 0x0004 Bytes, ...) -- CPU_ReadMem(4 bytes @ 0x40011004) -- Data:  44 44 44 44  returns 0x00 (0001ms, 0745ms total)
T1088 001:082 JLINK_ReadMem (0x40011004, 0x0004 Bytes, ...) -- CPU_ReadMem(4 bytes @ 0x40011004) -- Data:  44 44 44 44  returns 0x00 (0001ms, 0746ms total)
T1088 001:104 JLINK_ReadMem (0x40021000, 0x0024 Bytes, ...) -- CPU_ReadMem(36 bytes @ 0x40021000) -- Data:  83 4D 00 00 00 00 00 00 00 00 00 00 00 00 00 00 ...  returns 0x00 (0001ms, 0747ms total)
T1088 001:106 JLINK_ReadMem (0x40021024, 0x0004 Bytes, ...) -- CPU_ReadMem(4 bytes @ 0x40021024) -- Data:  00 00 00 1C  returns 0x00 (0000ms, 0748ms total)
T1088 001:106 JLINK_ReadMem (0x40021000, 0x0004 Bytes, ...) -- CPU_ReadMem(4 bytes @ 0x40021000) -- Data:  83 4D 00 00  returns 0x00 (0001ms, 0748ms total)
T1088 001:107 JLINK_ReadMem (0x40021000, 0x0004 Bytes, ...) -- CPU_ReadMem(4 bytes @ 0x40021000) -- Data:  83 4D 00 00  returns 0x00 (0001ms, 0749ms total)
T1088 001:108 JLINK_ReadMem (0x40021000, 0x0004 Bytes, ...) -- CPU_ReadMem(4 bytes @ 0x40021000) -- Data:  83 4D 00 00  returns 0x00 (0001ms, 0750ms total)
T1088 001:109 JLINK_ReadMem (0x40021000, 0x0004 Bytes, ...) -- CPU_ReadMem(4 bytes @ 0x40021000) -- Data:  83 4D 00 00  returns 0x00 (0001ms, 0751ms total)
T1088 001:110 JLINK_ReadMem (0x40021000, 0x0004 Bytes, ...) -- CPU_ReadMem(4 bytes @ 0x40021000) -- Data:  83 4D 00 00  returns 0x00 (0001ms, 0752ms total)
T1088 001:111 JLINK_ReadMem (0x40021000, 0x0004 Bytes, ...) -- CPU_ReadMem(4 bytes @ 0x40021000) -- Data:  83 4D 00 00  returns 0x00 (0001ms, 0753ms total)
T1088 001:112 JLINK_ReadMem (0x40021000, 0x0004 Bytes, ...) -- CPU_ReadMem(4 bytes @ 0x40021000) -- Data:  83 4D 00 00  returns 0x00 (0001ms, 0754ms total)
T1088 001:113 JLINK_ReadMem (0x40021000, 0x0004 Bytes, ...) -- CPU_ReadMem(4 bytes @ 0x40021000) -- Data:  83 4D 00 00  returns 0x00 (0001ms, 0755ms total)
T1088 001:114 JLINK_ReadMem (0x40021000, 0x0004 Bytes, ...) -- CPU_ReadMem(4 bytes @ 0x40021000) -- Data:  83 4D 00 00  returns 0x00 (0000ms, 0756ms total)
T1088 001:114 JLINK_ReadMem (0x40021000, 0x0004 Bytes, ...) -- CPU_ReadMem(4 bytes @ 0x40021000) -- Data:  83 4D 00 00  returns 0x00 (0001ms, 0756ms total)
T1088 001:115 JLINK_ReadMem (0x40021000, 0x0004 Bytes, ...) -- CPU_ReadMem(4 bytes @ 0x40021000) -- Data:  83 4D 00 00  returns 0x00 (0001ms, 0757ms total)
T1088 001:116 JLINK_ReadMem (0x40021014, 0x0004 Bytes, ...) -- CPU_ReadMem(4 bytes @ 0x40021014) -- Data:  14 00 00 00  returns 0x00 (0001ms, 0758ms total)
T1088 001:117 JLINK_ReadMem (0x40021014, 0x0004 Bytes, ...) -- CPU_ReadMem(4 bytes @ 0x40021014) -- Data:  14 00 00 00  returns 0x00 (0001ms, 0759ms total)
T1088 001:118 JLINK_ReadMem (0x40021014, 0x0004 Bytes, ...) -- CPU_ReadMem(4 bytes @ 0x40021014) -- Data:  14 00 00 00  returns 0x00 (0001ms, 0760ms total)
T1088 001:119 JLINK_ReadMem (0x40021014, 0x0004 Bytes, ...) -- CPU_ReadMem(4 bytes @ 0x40021014) -- Data:  14 00 00 00  returns 0x00 (0001ms, 0761ms total)
T1088 001:120 JLINK_ReadMem (0x40021014, 0x0004 Bytes, ...) -- CPU_ReadMem(4 bytes @ 0x40021014) -- Data:  14 00 00 00  returns 0x00 (0001ms, 0762ms total)
T1088 001:121 JLINK_ReadMem (0x40021014, 0x0004 Bytes, ...) -- CPU_ReadMem(4 bytes @ 0x40021014) -- Data:  14 00 00 00  returns 0x00 (0001ms, 0763ms total)
T1088 001:122 JLINK_ReadMem (0x40021014, 0x0004 Bytes, ...) -- CPU_ReadMem(4 bytes @ 0x40021014) -- Data:  14 00 00 00  returns 0x00 (0001ms, 0764ms total)
T1088 001:123 JLINK_ReadMem (0x40021014, 0x0004 Bytes, ...) -- CPU_ReadMem(4 bytes @ 0x40021014) -- Data:  14 00 00 00  returns 0x00 (0001ms, 0765ms total)
T1088 001:124 JLINK_ReadMem (0x40021024, 0x0004 Bytes, ...) -- CPU_ReadMem(4 bytes @ 0x40021024) -- Data:  00 00 00 1C  returns 0x00 (0000ms, 0766ms total)
T1088 001:124 JLINK_ReadMem (0x40021024, 0x0004 Bytes, ...) -- CPU_ReadMem(4 bytes @ 0x40021024) -- Data:  00 00 00 1C  returns 0x00 (0001ms, 0766ms total)
T1088 001:125 JLINK_ReadMem (0x40021024, 0x0004 Bytes, ...) -- CPU_ReadMem(4 bytes @ 0x40021024) -- Data:  00 00 00 1C  returns 0x00 (0001ms, 0767ms total)
T1088 001:127 JLINK_ReadMem (0x40021024, 0x0004 Bytes, ...) -- CPU_ReadMem(4 bytes @ 0x40021024) -- Data:  00 00 00 1C  returns 0x00 (0000ms, 0768ms total)
T1088 001:127 JLINK_ReadMem (0x40021024, 0x0004 Bytes, ...) -- CPU_ReadMem(4 bytes @ 0x40021024) -- Data:  00 00 00 1C  returns 0x00 (0001ms, 0768ms total)
T1088 001:128 JLINK_ReadMem (0x40021024, 0x0004 Bytes, ...) -- CPU_ReadMem(4 bytes @ 0x40021024) -- Data:  00 00 00 1C  returns 0x00 (0001ms, 0769ms total)
T1088 001:129 JLINK_ReadMem (0x40021024, 0x0004 Bytes, ...) -- CPU_ReadMem(4 bytes @ 0x40021024) -- Data:  00 00 00 1C  returns 0x00 (0001ms, 0770ms total)
T1088 001:130 JLINK_ReadMem (0x40021024, 0x0004 Bytes, ...) -- CPU_ReadMem(4 bytes @ 0x40021024) -- Data:  00 00 00 1C  returns 0x00 (0000ms, 0771ms total)
T1088 001:130 JLINK_ReadMem (0x40021024, 0x0004 Bytes, ...) -- CPU_ReadMem(4 bytes @ 0x40021024) -- Data:  00 00 00 1C  returns 0x00 (0001ms, 0771ms total)
T1088 001:131 JLINK_ReadMem (0x40021024, 0x0004 Bytes, ...) -- CPU_ReadMem(4 bytes @ 0x40021024) -- Data:  00 00 00 1C  returns 0x00 (0001ms, 0772ms total)
T1088 001:154 JLINK_ReadMem (0x40004400, 0x0018 Bytes, ...) -- CPU_ReadMem(24 bytes @ 0x40004400) -- Data:  00 00 00 00 00 00 00 00 00 00 00 00 00 00 00 00 ...  returns 0x00 (0001ms, 0773ms total)
T1088 001:155 JLINK_ReadMem (0x40004418, 0x0004 Bytes, ...) -- CPU_ReadMem(4 bytes @ 0x40004418) -- Data:  00 00 00 00  returns 0x00 (0002ms, 0774ms total)
T1088 002:552 JLINK_ReadMem (0x40010800, 0x0018 Bytes, ...) -- CPU_ReadMem(24 bytes @ 0x40010800) -- Data:  44 44 44 44 44 44 84 88 00 00 00 00 00 A0 00 00 ...  returns 0x00 (0002ms, 0776ms total)
T1088 002:554 JLINK_ReadMem (0x40010818, 0x0004 Bytes, ...) -- CPU_ReadMem(4 bytes @ 0x40010818) -- Data:  00 00 00 00  returns 0x00 (0001ms, 0778ms total)
T1088 002:555 JLINK_ReadMem (0x40004400, 0x0018 Bytes, ...) -- CPU_ReadMem(24 bytes @ 0x40004400) -- Data:  00 00 00 00 00 00 00 00 00 00 00 00 00 00 00 00 ...  returns 0x00 (0001ms, 0779ms total)
T1088 002:556 JLINK_ReadMem (0x40004418, 0x0004 Bytes, ...) -- CPU_ReadMem(4 bytes @ 0x40004418) -- Data:  00 00 00 00  returns 0x00 (0001ms, 0780ms total)
T1088 002:557 JLINK_ReadMem (0x40010C00, 0x0018 Bytes, ...) -- CPU_ReadMem(24 bytes @ 0x40010C00) -- Data:  44 44 48 44 44 44 44 44 00 00 00 00 10 00 00 00 ...  returns 0x00 (0001ms, 0781ms total)
T1088 002:558 JLINK_ReadMem (0x40010C18, 0x0004 Bytes, ...) -- CPU_ReadMem(4 bytes @ 0x40010C18) -- Data:  00 00 00 00  returns 0x00 (0001ms, 0782ms total)
T1088 002:559 JLINK_ReadMem (0x40021000, 0x0024 Bytes, ...) -- CPU_ReadMem(36 bytes @ 0x40021000) -- Data:  83 4D 00 00 00 00 00 00 00 00 00 00 00 00 00 00 ...  returns 0x00 (0001ms, 0783ms total)
T1088 002:560 JLINK_ReadMem (0x40021024, 0x0004 Bytes, ...) -- CPU_ReadMem(4 bytes @ 0x40021024) -- Data:  00 00 00 1C  returns 0x00 (0001ms, 0784ms total)
T1088 002:561 JLINK_ReadMem (0x40011000, 0x0018 Bytes, ...) -- CPU_ReadMem(24 bytes @ 0x40011000) -- Data:  44 44 44 44 44 44 44 44 00 00 00 00 00 00 00 00 ...  returns 0x00 (0001ms, 0785ms total)
T1088 002:562 JLINK_ReadMem (0x40011018, 0x0004 Bytes, ...) -- CPU_ReadMem(4 bytes @ 0x40011018) -- Data:  00 00 00 00  returns 0x00 (0001ms, 0786ms total)
T1124 002:588 JLINK_SetBPEx(Addr = 0x08000AF0, Type = 0xFFFFFFF2)  returns 0x00000001 (0000ms, 0787ms total)
T1124 002:588 JLINK_Go() -- CPU_WriteMem(4 bytes @ 0xE0002000) -- CPU_WriteMem(4 bytes @ 0xE0002008) -- CPU_WriteMem(4 bytes @ 0xE000200C) -- CPU_WriteMem(4 bytes @ 0xE0002010) -- CPU_WriteMem(4 bytes @ 0xE0002014) -- CPU_WriteMem(4 bytes @ 0xE0002018) -- CPU_WriteMem(4 bytes @ 0xE000201C) (0008ms, 0787ms total)
T1124 002:697 JLINK_IsHalted()  returns TRUE (0003ms, 0795ms total)
T1124 002:700 JLINK_Halt()  returns 0x00 (0000ms, 0795ms total)
T1124 002:700 JLINK_IsHalted()  returns TRUE (0000ms, 0795ms total)
T1124 002:700 JLINK_IsHalted()  returns TRUE (0000ms, 0795ms total)
T1124 002:700 JLINK_IsHalted()  returns TRUE (0000ms, 0795ms total)
T1124 002:700 JLINK_ReadReg(R15)  returns 0x08000AF0 (0000ms, 0795ms total)
T1124 002:700 JLINK_ReadReg(XPSR)  returns 0x61000000 (0000ms, 0795ms total)
T1124 002:700 JLINK_ClrBPEx(BPHandle = 0x00000001)  returns 0x00 (0000ms, 0795ms total)
T1124 002:700 JLINK_ReadMemU32(0xE000ED30, 0x0001 Items, ...) -- CPU_ReadMem(4 bytes @ 0xE000ED30) -- Data:  03 00 00 00  returns 0x01 (0001ms, 0795ms total)
T1124 002:701 JLINK_ReadMemU32(0xE0001028, 0x0001 Items, ...) -- CPU_ReadMem(4 bytes @ 0xE0001028) -- Data:  01 00 00 40  returns 0x01 (0001ms, 0796ms total)
T1124 002:702 JLINK_ReadMemU32(0xE0001038, 0x0001 Items, ...) -- CPU_ReadMem(4 bytes @ 0xE0001038) -- Data:  01 00 00 40  returns 0x01 (0001ms, 0797ms total)
T1124 002:703 JLINK_ReadMemU32(0xE0001048, 0x0001 Items, ...) -- CPU_ReadMem(4 bytes @ 0xE0001048) -- Data:  01 00 00 40  returns 0x01 (0001ms, 0798ms total)
T1124 002:704 JLINK_ReadMemU32(0xE0001058, 0x0001 Items, ...) -- CPU_ReadMem(4 bytes @ 0xE0001058) -- Data:  01 00 00 40  returns 0x01 (0000ms, 0799ms total)
T1124 002:705 JLINK_ReadReg(R0)  returns 0x08000AF1 (0000ms, 0799ms total)
T1124 002:705 JLINK_ReadReg(R1)  returns 0x20000490 (0000ms, 0799ms total)
T1124 002:705 JLINK_ReadReg(R2)  returns 0x00000000 (0000ms, 0799ms total)
T1124 002:705 JLINK_ReadReg(R3)  returns 0x08000A7D (0000ms, 0799ms total)
T1124 002:705 JLINK_ReadReg(R4)  returns 0x08000B6C (0000ms, 0799ms total)
T1124 002:705 JLINK_ReadReg(R5)  returns 0x08000B6C (0000ms, 0799ms total)
T1124 002:705 JLINK_ReadReg(R6)  returns 0x00000000 (0000ms, 0799ms total)
T1124 002:705 JLINK_ReadReg(R7)  returns 0x00000000 (0000ms, 0799ms total)
T1124 002:705 JLINK_ReadReg(R8)  returns 0x00000000 (0000ms, 0799ms total)
T1124 002:705 JLINK_ReadReg(R9)  returns 0x20000160 (0000ms, 0799ms total)
T1124 002:705 JLINK_ReadReg(R10)  returns 0x00000000 (0000ms, 0799ms total)
T1124 002:705 JLINK_ReadReg(R11)  returns 0x00000000 (0000ms, 0799ms total)
T1124 002:705 JLINK_ReadReg(R12)  returns 0x00000000 (0000ms, 0799ms total)
T1124 002:705 JLINK_ReadReg(R13)  returns 0x20000490 (0000ms, 0799ms total)
T1124 002:705 JLINK_ReadReg(R14)  returns 0x08000189 (0000ms, 0799ms total)
T1124 002:705 JLINK_ReadReg(R15)  returns 0x08000AF0 (0000ms, 0799ms total)
T1124 002:705 JLINK_ReadReg(XPSR)  returns 0x61000000 (0000ms, 0799ms total)
T1124 002:705 JLINK_ReadReg(MSP)  returns 0x20000490 (0000ms, 0799ms total)
T1124 002:705 JLINK_ReadReg(PSP)  returns 0x20000800 (0000ms, 0799ms total)
T1124 002:705 JLINK_ReadReg(CFBP)  returns 0x00000000 (0000ms, 0799ms total)
T1088 002:708 JLINK_ReadMem (0x40010800, 0x0018 Bytes, ...) -- CPU_ReadMem(24 bytes @ 0x40010800) -- Data:  44 44 44 44 44 44 84 88 00 00 00 00 00 A0 00 00 ...  returns 0x00 (0001ms, 0799ms total)
T1088 002:709 JLINK_ReadMem (0x40010818, 0x0004 Bytes, ...) -- CPU_ReadMem(4 bytes @ 0x40010818) -- Data:  00 00 00 00  returns 0x00 (0000ms, 0800ms total)
T1088 002:710 JLINK_ReadMem (0x40004400, 0x0018 Bytes, ...) -- CPU_ReadMem(24 bytes @ 0x40004400) -- Data:  00 00 00 00 00 00 00 00 00 00 00 00 00 00 00 00 ...  returns 0x00 (0001ms, 0800ms total)
T1088 002:711 JLINK_ReadMem (0x40004418, 0x0004 Bytes, ...) -- CPU_ReadMem(4 bytes @ 0x40004418) -- Data:  00 00 00 00  returns 0x00 (0000ms, 0801ms total)
T1088 002:712 JLINK_ReadMem (0x40010C00, 0x0018 Bytes, ...) -- CPU_ReadMem(24 bytes @ 0x40010C00) -- Data:  44 44 48 44 44 44 44 44 00 00 00 00 10 00 00 00 ...  returns 0x00 (0000ms, 0801ms total)
T1088 002:712 JLINK_ReadMem (0x40010C18, 0x0004 Bytes, ...) -- CPU_ReadMem(4 bytes @ 0x40010C18) -- Data:  00 00 00 00  returns 0x00 (0001ms, 0801ms total)
T1088 002:713 JLINK_ReadMem (0x40021000, 0x0024 Bytes, ...) -- CPU_ReadMem(36 bytes @ 0x40021000) -- Data:  83 4D 00 00 00 00 00 00 00 00 00 00 00 00 00 00 ...  returns 0x00 (0001ms, 0802ms total)
T1088 002:714 JLINK_ReadMem (0x40021024, 0x0004 Bytes, ...) -- CPU_ReadMem(4 bytes @ 0x40021024) -- Data:  00 00 00 1C  returns 0x00 (0001ms, 0803ms total)
T1088 002:715 JLINK_ReadMem (0x40011000, 0x0018 Bytes, ...) -- CPU_ReadMem(24 bytes @ 0x40011000) -- Data:  44 44 44 44 44 44 44 44 00 00 00 00 00 00 00 00 ...  returns 0x00 (0001ms, 0804ms total)
T1088 002:716 JLINK_ReadMem (0x40011018, 0x0004 Bytes, ...) -- CPU_ReadMem(4 bytes @ 0x40011018) -- Data:  00 00 00 00  returns 0x00 (0001ms, 0805ms total)
T1088 002:804 JLINK_ReadMem (0x08000AF0, 0x003C Bytes, ...) -- CPU_ReadMem(128 bytes @ 0x08000AC0) -- Updating C cache (128 bytes @ 0x08000AC0) -- Read from C cache (60 bytes @ 0x08000AF0) -- Data:  08 48 00 21 01 70 41 60 01 21 41 70 FF F7 66 FF ...  returns 0x00 (0002ms, 0806ms total)
T1124 003:922 JLINK_Go() -- CPU_WriteMem(4 bytes @ 0xE0002008) -- CPU_WriteMem(4 bytes @ 0xE000200C) -- CPU_WriteMem(4 bytes @ 0xE0002010) -- CPU_WriteMem(4 bytes @ 0xE0002014) -- CPU_WriteMem(4 bytes @ 0xE0002018) -- CPU_WriteMem(4 bytes @ 0xE000201C) (0009ms, 0808ms total)
T1124 004:032 JLINK_IsHalted()  returns FALSE (0001ms, 0817ms total)
T1124 004:133 JLINK_IsHalted()  returns FALSE (0001ms, 0817ms total)
T1124 004:235 JLINK_IsHalted()  returns FALSE (0001ms, 0817ms total)
T1124 004:337 JLINK_IsHalted()  returns FALSE (0001ms, 0817ms total)
T1124 004:438 JLINK_IsHalted()  returns FALSE (0001ms, 0817ms total)
T1124 004:540 JLINK_IsHalted()  returns FALSE (0000ms, 0817ms total)
T1124 004:640 JLINK_IsHalted()  returns FALSE (0000ms, 0817ms total)
T1124 004:741 JLINK_IsHalted()  returns FALSE (0000ms, 0817ms total)
T1124 004:843 JLINK_IsHalted()  returns FALSE (0001ms, 0817ms total)
T1124 004:945 JLINK_IsHalted()  returns FALSE (0001ms, 0817ms total)
T1124 005:047 JLINK_IsHalted()  returns FALSE (0000ms, 0817ms total)
T1124 005:148 JLINK_IsHalted()  returns FALSE (0000ms, 0817ms total)
T1124 005:249 JLINK_IsHalted()  returns FALSE (0001ms, 0817ms total)
T1124 005:350 JLINK_IsHalted()  returns FALSE (0001ms, 0817ms total)
T1124 005:452 JLINK_IsHalted()  returns FALSE (0000ms, 0817ms total)
T1124 005:552 JLINK_IsHalted()  returns FALSE (0001ms, 0817ms total)
T1124 005:654 JLINK_IsHalted()  returns FALSE (0001ms, 0817ms total)
T1124 005:755 JLINK_IsHalted()  returns FALSE (0001ms, 0817ms total)
T1124 005:857 JLINK_IsHalted()  returns FALSE (0001ms, 0817ms total)
T1124 005:959 JLINK_IsHalted()  returns FALSE (0001ms, 0817ms total)
T1124 006:060 JLINK_IsHalted()  returns FALSE (0000ms, 0817ms total)
T1124 006:161 JLINK_IsHalted()  returns FALSE (0000ms, 0817ms total)
T1124 006:261 JLINK_IsHalted()  returns FALSE (0001ms, 0817ms total)
T1124 006:363 JLINK_IsHalted()  returns FALSE (0000ms, 0817ms total)
T1124 006:463 JLINK_IsHalted()  returns FALSE (0000ms, 0817ms total)
T1124 006:565 JLINK_IsHalted()  returns FALSE (0001ms, 0817ms total)
T1124 006:667 JLINK_IsHalted()  returns FALSE (0001ms, 0817ms total)
T1124 006:768 JLINK_IsHalted()  returns FALSE (0001ms, 0817ms total)
T1124 006:870 JLINK_IsHalted()  returns FALSE (0000ms, 0817ms total)
T1124 006:970 JLINK_IsHalted()  returns FALSE (0001ms, 0817ms total)
T1124 007:072 JLINK_IsHalted()  returns FALSE (0000ms, 0817ms total)
T1124 007:172 JLINK_IsHalted()  returns FALSE (0000ms, 0817ms total)
T1124 007:273 JLINK_IsHalted()  returns FALSE (0000ms, 0817ms total)
T1124 007:375 JLINK_IsHalted()  returns FALSE (0002ms, 0817ms total)
T1124 007:477 JLINK_IsHalted()  returns FALSE (0000ms, 0817ms total)
T1124 007:578 JLINK_IsHalted()  returns FALSE (0000ms, 0817ms total)
T1124 007:678 JLINK_IsHalted()  returns FALSE (0001ms, 0817ms total)
T1124 007:780 JLINK_IsHalted()  returns FALSE (0000ms, 0817ms total)
T1124 007:880 JLINK_IsHalted()  returns FALSE (0000ms, 0817ms total)
T1124 007:981 JLINK_IsHalted()  returns FALSE (0001ms, 0817ms total)
T1124 008:083 JLINK_IsHalted()  returns FALSE (0001ms, 0817ms total)
T1124 008:184 JLINK_IsHalted()  returns FALSE (0000ms, 0817ms total)
T1124 008:286 JLINK_IsHalted()  returns FALSE (0001ms, 0817ms total)
T1124 008:387 JLINK_IsHalted()  returns FALSE (0002ms, 0817ms total)
T1124 008:490 JLINK_IsHalted()  returns FALSE (0001ms, 0817ms total)
T1124 008:591 JLINK_IsHalted()  returns FALSE (0000ms, 0817ms total)
T1124 008:692 JLINK_IsHalted()  returns FALSE (0000ms, 0817ms total)
T1124 008:793 JLINK_IsHalted()  returns FALSE (0001ms, 0817ms total)
T1124 008:894 JLINK_IsHalted()  returns FALSE (0001ms, 0817ms total)
T1124 008:996 JLINK_IsHalted()  returns FALSE (0002ms, 0817ms total)
T1124 009:098 JLINK_IsHalted()  returns FALSE (0000ms, 0817ms total)
T1124 009:199 JLINK_IsHalted()  returns FALSE (0001ms, 0817ms total)
T1124 009:300 JLINK_IsHalted()  returns FALSE (0001ms, 0817ms total)
T1124 009:402 JLINK_IsHalted()  returns FALSE (0001ms, 0817ms total)
T1124 009:504 JLINK_IsHalted()  returns FALSE (0001ms, 0817ms total)
T1124 009:605 JLINK_IsHalted()  returns FALSE (0001ms, 0817ms total)
T1124 009:707 JLINK_IsHalted()  returns FALSE (0000ms, 0817ms total)
T1124 009:808 JLINK_IsHalted()  returns FALSE (0001ms, 0817ms total)
T1124 009:910 JLINK_IsHalted()  returns FALSE (0000ms, 0817ms total)
T1124 010:010 JLINK_IsHalted()  returns FALSE (0001ms, 0817ms total)
T1124 010:112 JLINK_IsHalted()  returns FALSE (0000ms, 0817ms total)
T1124 010:213 JLINK_IsHalted()  returns FALSE (0000ms, 0817ms total)
T1124 010:313 JLINK_IsHalted()  returns FALSE (0001ms, 0817ms total)
T1124 010:415 JLINK_IsHalted()  returns FALSE (0001ms, 0817ms total)
T1124 010:516 JLINK_IsHalted()  returns FALSE (0001ms, 0817ms total)
T1124 010:618 JLINK_IsHalted()  returns FALSE (0001ms, 0817ms total)
T1124 010:719 JLINK_IsHalted()  returns FALSE (0001ms, 0817ms total)
T1124 010:821 JLINK_IsHalted()  returns FALSE (0001ms, 0817ms total)
T1124 010:922 JLINK_IsHalted()  returns FALSE (0001ms, 0817ms total)
T1124 011:024 JLINK_IsHalted()  returns FALSE (0001ms, 0817ms total)
T1124 011:126 JLINK_IsHalted()  returns FALSE (0001ms, 0817ms total)
T1124 011:227 JLINK_IsHalted()  returns FALSE (0001ms, 0817ms total)
T1124 011:329 JLINK_IsHalted()  returns FALSE (0000ms, 0817ms total)
T1124 011:429 JLINK_IsHalted()  returns FALSE (0001ms, 0817ms total)
T1124 011:531 JLINK_IsHalted()  returns FALSE (0000ms, 0817ms total)
T1124 011:631 JLINK_IsHalted()  returns FALSE (0001ms, 0817ms total)
T1124 011:733 JLINK_IsHalted()  returns FALSE (0000ms, 0817ms total)
T1124 011:834 JLINK_IsHalted()  returns FALSE (0000ms, 0817ms total)
T1124 011:934 JLINK_IsHalted()  returns FALSE (0001ms, 0817ms total)
T1124 012:036 JLINK_IsHalted()  returns FALSE (0001ms, 0817ms total)
T1124 012:137 JLINK_IsHalted()  returns FALSE (0001ms, 0817ms total)
T1124 012:239 JLINK_IsHalted()  returns FALSE (0001ms, 0817ms total)
T1124 012:340 JLINK_IsHalted()  returns FALSE (0000ms, 0817ms total)
T1124 012:441 JLINK_IsHalted()  returns FALSE (0002ms, 0817ms total)
T1124 012:544 JLINK_IsHalted()  returns FALSE (0001ms, 0817ms total)
T1124 012:645 JLINK_IsHalted()  returns FALSE (0000ms, 0817ms total)
T1124 012:746 JLINK_IsHalted()  returns FALSE (0000ms, 0817ms total)
T1124 012:846 JLINK_IsHalted()  returns FALSE (0000ms, 0817ms total)
T1124 012:947 JLINK_IsHalted()  returns FALSE (0001ms, 0817ms total)
T1124 013:048 JLINK_IsHalted()  returns FALSE (0001ms, 0817ms total)
T1124 013:150 JLINK_IsHalted()  returns FALSE (0001ms, 0817ms total)
T1124 013:252 JLINK_IsHalted()  returns FALSE (0000ms, 0817ms total)
T1124 013:352 JLINK_IsHalted()  returns FALSE (0001ms, 0817ms total)
T1124 013:454 JLINK_IsHalted()  returns FALSE (0001ms, 0817ms total)
T1124 013:555 JLINK_IsHalted()  returns FALSE (0000ms, 0817ms total)
T1124 013:656 JLINK_IsHalted()  returns FALSE (0000ms, 0817ms total)
T1124 013:756 JLINK_IsHalted()  returns FALSE (0001ms, 0817ms total)
T1124 013:858 JLINK_IsHalted()  returns FALSE (0001ms, 0817ms total)
